<Qucs Dataset 1.0.3>
<indep time 17>
  +0.00000000000000000000e+00
  +1.00000000000000002082e-03
  +2.00000000000000004163e-03
  +3.00000000000000006245e-03
  +4.00000000000000008327e-03
  +5.00000000000000010408e-03
  +6.00000000000000012490e-03
  +7.00000000000000014572e-03
  +8.00000000000000016653e-03
  +9.00000000000000105471e-03
  +1.00000000000000002082e-02
  +1.09999999999999993616e-02
  +1.20000000000000002498e-02
  +1.30000000000000011380e-02
  +1.40000000000000002914e-02
  +1.49999999999999994449e-02
  +1.60000000000000003331e-02
</indep>
<dep Pr1.It time>
  +0.00000000000000000000e+00
  +0.00000000000000000000e+00
  +0.00000000000000000000e+00
  +0.00000000000000000000e+00
  +0.00000000000000000000e+00
  +0.00000000000000000000e+00
  +0.00000000000000000000e+00
  +0.00000000000000000000e+00
  +0.00000000000000000000e+00
  +0.00000000000000000000e+00
  +0.00000000000000000000e+00
  +0.00000000000000000000e+00
  +0.00000000000000000000e+00
  +0.00000000000000000000e+00
  +0.00000000000000000000e+00
  +0.00000000000000000000e+00
  +0.00000000000000000000e+00
</dep>
<dep V4.It time>
  -8.01788030520235537463e-04
  -8.01788030520198674589e-04
  -8.01788030520196831445e-04
  -8.01788030520197156706e-04
  -8.01788030520197481966e-04
  -8.01788030520197915647e-04
  -8.01788030520198783009e-04
  -8.01788030520198566169e-04
  -8.01788030520197048286e-04
  -8.01788030520198132488e-04
  -8.01788030520195964083e-04
  -8.01788030520198349328e-04
  -8.01788030520197265126e-04
  -8.01788030520197156706e-04
  -8.01788030520197915647e-04
  -8.01788030520198024068e-04
  -8.01788030520198566169e-04
</dep>
<dep V3.It time>
  -8.01857881888765901789e-04
  -8.01857881888766118629e-04
  -8.01857881888766118629e-04
  -8.01857881888766118629e-04
  -8.01857881888765684948e-04
  -8.01857881888765684948e-04
  -8.01857881888766118629e-04
  -8.01857881888766118629e-04
  -8.01857881888765793368e-04
  -8.01857881888766118629e-04
  -8.01857881888765684948e-04
  -8.01857881888765576528e-04
  -8.01857881888765684948e-04
  -8.01857881888765576528e-04
  -8.01857881888766118629e-04
  -8.01857881888765576528e-04
  -8.01857881888765576528e-04
</dep>
<dep V1.It time>
  +0.00000000000000000000e+00
  -7.01822388334754432293e+00
  -2.79125584022818209462e+01
  -5.87854895589542749690e+01
  -9.36618097716096684735e+01
  -1.25497576632254634887e+02
  -1.47233190200730376773e+02
  -1.52964231397845765059e+02
  -1.38832368550501428217e+02
  +1.10630886561485780817e+02
  +9.11647989724299208092e+01
  +8.04967669712710289787e+01
  +7.48106662706308469524e+01
  +6.89540324988948754026e+01
  +5.74001655841870643826e+01
  +3.52886219254272717194e+01
  +1.22518060423954147642e-01
</dep>
<dep V2.It time>
  +0.00000000000000000000e+00
  -7.01822388334618096906e+00
  -2.79125584022713120191e+01
  -5.87854895589149535340e+01
  -9.36618097715938944248e+01
  -1.25497576632262052954e+02
  -1.47233190200748936149e+02
  -1.52964231397846560867e+02
  -1.38832368550503417737e+02
  +1.10630886561489546693e+02
  +9.11647989724380494181e+01
  +8.04967669712845577124e+01
  +7.48106662706217662162e+01
  +6.89540324988974333564e+01
  +5.74001655841965288118e+01
  +3.52886219254287354374e+01
  +1.22518060424076730142e-01
</dep>
<dep AC1.Vt time>
  +0.00000000000000000000e+00
  +1.84062276342338968504e+01
  +3.42273552964344318639e+01
  +4.52413526233009761768e+01
  +4.99013364214135748398e+01
  +4.75528258147576821102e+01
  +3.85256621387894639952e+01
  +2.40876837050857801614e+01
  +6.26666167821522712700e+00
  -1.24344943582427500672e+01
  -2.93892626146236501938e+01
  -4.22163962751007417751e+01
  -4.91143625364344345030e+01
  -4.91143625364344345030e+01
  -4.22163962751007773022e+01
  -2.93892626146236999318e+01
  -1.24344943582427678308e+01
</dep>
<dep AC2.Vt time>
  +0.00000000000000000000e+00
  -1.84062276342338968504e+01
  -3.42273552964344318639e+01
  -4.52413526233009761768e+01
  -4.99013364214135748398e+01
  -4.75528258147576821102e+01
  -3.85256621387894639952e+01
  -2.40876837050857801614e+01
  -6.26666167821522712700e+00
  +1.24344943582427500672e+01
  +2.93892626146236501938e+01
  +4.22163962751007417751e+01
  +4.91143625364344345030e+01
  +4.91143625364344345030e+01
  +4.22163962751007773022e+01
  +2.93892626146236999318e+01
  +1.24344943582427678308e+01
</dep>
<dep _net9.Vt time>
  +0.00000000000000000000e+00
  -1.73715891878047230534e+01
  -3.30213036768629564222e+01
  -4.38701840132802658445e+01
  -4.83691807039878440833e+01
  -4.58827276911924428759e+01
  -3.67640982401433902282e+01
  -2.23022516389483840271e+01
  -4.54018228365519327383e+00
  -1.08279954826983750849e+01
  -2.78680959449924152693e+01
  -4.07432499914558405862e+01
  -4.76672795492239416149e+01
  -4.76945212293098990131e+01
  -4.08518156666418903455e+01
  -2.81395944568033868904e+01
  -1.66382369424408523173e+02
</dep>
<dep CP.Vt time>
  -3.53276435858308757165e-03
  -3.53276436412067965792e-03
  -3.53276435641489052614e-03
  -3.53276435529295074547e-03
  -3.53276435507927488028e-03
  -3.53276436184739349791e-03
  -3.53276436263871319865e-03
  -3.53276436313143494747e-03
  -3.53276436162722109330e-03
  -3.53276436516538954943e-03
  -3.53276437128553430500e-03
  -3.53276436596781148042e-03
  -3.53276436526232199414e-03
  -3.53276436467654100446e-03
  -3.53276436406954998451e-03
  -3.53276436600369206711e-03
  -3.53276436650012742521e-03
</dep>
<dep _net8.Vt time>
  -5.64073422647770605920e-03
  -5.64073422631341907241e-03
  -5.64073422620857672233e-03
  -5.64073422585962061526e-03
  -5.64073422592073232124e-03
  -5.64073422674740438537e-03
  -5.64073422603837953265e-03
  -5.64073422580557964218e-03
  -5.64073422577590372767e-03
  -5.64073422594805768543e-03
  -5.64073422694251393888e-03
  -5.64073422676174707907e-03
  -5.64073422647118002948e-03
  -5.64073422597134114392e-03
  -5.64073422551287714799e-03
  -5.64073422622001982574e-03
  -5.64073422627922160116e-03
</dep>
<dep _net5.Vt time>
  +5.79414635735917077494e-08
  +5.79414635738804136355e-08
  +5.79414635740619169142e-08
  +5.79414635746584266324e-08
  +5.79414635745397229058e-08
  +5.79414635731572526393e-08
  +5.79414635743605489677e-08
  +5.79414635747571787627e-08
  +5.79414635747981142768e-08
  +5.79414635745099179340e-08
  +5.79414635728168711260e-08
  +5.79414635731288704181e-08
  +5.79414635736058095244e-08
  +5.79414635744577459984e-08
  +5.79414635752286121548e-08
  +5.79414635740391396689e-08
  +5.79414635739458072260e-08
</dep>
<dep VEE.Vt time>
  +0.00000000000000000000e+00
  -1.13492811383737277064e-01
  -9.34944845470738306048e-01
  -3.07115971719590774569e+00
  -6.87748670998974631630e+00
  -1.23790669688417196426e+01
  -1.92419804640212284141e+01
  -2.68072012383699593840e+01
  -3.41690386609917950977e+01
  -4.03771381902437838107e+01
  -4.53612467527905565134e+01
  -4.96000977661569848465e+01
  -5.34468782528810706367e+01
  -5.70248554834121961221e+01
  -6.01871119185095224680e+01
  -6.25253208857915936392e+01
  -6.34211797121830898050e+01
</dep>
<dep _net10.Vt time>
  +0.00000000000000000000e+00
  +1.73715891878047230534e+01
  +3.30213036768629351059e+01
  +4.38701840132800882088e+01
  +4.83691807039878014507e+01
  +4.58827276911923931380e+01
  +3.67640982401434115445e+01
  +2.23022516389483662635e+01
  +4.54018228365518972112e+00
  +1.08279954826983715321e+01
  +2.78680959449923904003e+01
  +4.07432499914557908482e+01
  +4.76672795492239274040e+01
  +4.76945212293098421696e+01
  +4.08518156666418619238e+01
  +2.81395944568033797850e+01
  +1.66382369423907590544e+02
</dep>
<dep VCC.Vt time>
  +0.00000000000000000000e+00
  +1.13492811383737429720e-01
  +9.34944845470739860360e-01
  +3.07115971719592417699e+00
  +6.87748670998978184343e+00
  +1.23790669688417072081e+01
  +1.92419804640212355196e+01
  +2.68072012383699664895e+01
  +3.41690386609918093086e+01
  +4.03771381902436914402e+01
  +4.53612467527906062514e+01
  +4.96000977661571198496e+01
  +5.34468782528810564258e+01
  +5.70248554834122316493e+01
  +6.01871119185096574711e+01
  +6.25253208857918139074e+01
  +6.34211797121833953383e+01
</dep>
<dep VP12.Vt time>
  +1.20000000000000000000e+01
  +1.20000000000000000000e+01
  +1.20000000000000000000e+01
  +1.20000000000000000000e+01
  +1.20000000000000000000e+01
  +1.20000000000000000000e+01
  +1.20000000000000000000e+01
  +1.20000000000000000000e+01
  +1.20000000000000000000e+01
  +1.20000000000000000000e+01
  +1.20000000000000000000e+01
  +1.20000000000000000000e+01
  +1.20000000000000000000e+01
  +1.20000000000000000000e+01
  +1.20000000000000000000e+01
  +1.20000000000000000000e+01
  +1.20000000000000000000e+01
</dep>
<dep VN12.Vt time>
  -1.20000000000000000000e+01
  -1.20000000000000000000e+01
  -1.20000000000000000000e+01
  -1.20000000000000000000e+01
  -1.20000000000000000000e+01
  -1.20000000000000000000e+01
  -1.20000000000000000000e+01
  -1.20000000000000000000e+01
  -1.20000000000000000000e+01
  -1.20000000000000000000e+01
  -1.20000000000000000000e+01
  -1.20000000000000000000e+01
  -1.20000000000000000000e+01
  -1.20000000000000000000e+01
  -1.20000000000000000000e+01
  -1.20000000000000000000e+01
  -1.20000000000000000000e+01
</dep>
<dep _net2.Vt time>
  -5.64074493063043431312e-03
  -5.64074493046003502816e-03
  -5.64074493034857210594e-03
  -5.64074492999904787693e-03
  -5.64074493006900146846e-03
  -5.64074493088592872347e-03
  -5.64074493017771138453e-03
  -5.64074492994089213976e-03
  -5.64074492991628335253e-03
  -5.64074493008772520630e-03
  -5.64074493108315810908e-03
  -5.64074493090413898316e-03
  -5.64074493062352577688e-03
  -5.64074493012014979015e-03
  -5.64074492966321582033e-03
  -5.64074493036645363553e-03
  -5.64074493042374548041e-03
</dep>
<dep _net7.Vt time>
  +5.81522888935353829763e-08
  +5.81522888938240954799e-08
  +5.81522888940055855237e-08
  +5.81522888946021018593e-08
  +5.81522888944833915153e-08
  +5.81522888931009212488e-08
  +5.81522888943042308120e-08
  +5.81522888947008539896e-08
  +5.81522888947417895038e-08
  +5.81522888944535997783e-08
  +5.81522888927605265006e-08
  +5.81522888930725456451e-08
  +5.81522888935494847514e-08
  +5.81522888944014278427e-08
  +5.81522888951723006166e-08
  +5.81522888939828215132e-08
  +5.81522888938895023052e-08
</dep>
<dep _net6.Vt time>
  +5.81522888935353829763e-08
  +5.81522888938240954799e-08
  +5.81522888940055855237e-08
  +5.81522888946021018593e-08
  +5.81522888944833915153e-08
  +5.81522888931009212488e-08
  +5.81522888943042308120e-08
  +5.81522888947008539896e-08
  +5.81522888947417895038e-08
  +5.81522888944535997783e-08
  +5.81522888927605265006e-08
  +5.81522888930725456451e-08
  +5.81522888935494847514e-08
  +5.81522888944014278427e-08
  +5.81522888951723006166e-08
  +5.81522888939828215132e-08
  +5.81522888938895023052e-08
</dep>
<dep _net1.Vt time>
  +8.53956590287867746761e-05
  +8.53956590298053826171e-05
  +8.53956590304535051233e-05
  +8.53956590325528593424e-05
  +8.53956590321353466383e-05
  +8.53956590272596352586e-05
  +8.53956590314962230102e-05
  +8.53956590328999937730e-05
  +8.53956590330454259419e-05
  +8.53956590320230503983e-05
  +8.53956590260686120670e-05
  +8.53956590271586689312e-05
  +8.53956590288385724349e-05
  +8.53956590318386953714e-05
  +8.53956590345542016851e-05
  +8.53956590303638958138e-05
  +8.53956590300287147121e-05
</dep>
<dep _net0.Vt time>
  +1.18958958123002711809e-04
  +1.18958958123008241240e-04
  +1.18958958123000218144e-04
  +1.18958958123004663373e-04
  +1.18958958123003470751e-04
  +1.18958958123003389435e-04
  +1.18958958123010762010e-04
  +1.18958958123005828890e-04
  +1.18958958123004771793e-04
  +1.18958958123010748458e-04
  +1.18958958122993889114e-04
  +1.18958958123004256797e-04
  +1.18958958123006506517e-04
  +1.18958958123011100823e-04
  +1.18958958123014326325e-04
  +1.18958958123009501625e-04
  +1.18958958123015505395e-04
</dep>
<dep _net4.Vt time>
  +7.11730903374689416246e-05
  +7.11730903383178990307e-05
  +7.11730903388580756581e-05
  +7.11730903406077746766e-05
  +7.11730903402597864368e-05
  +7.11730903361961695893e-05
  +7.11730903397271179095e-05
  +7.11730903408970804738e-05
  +7.11730903410182942767e-05
  +7.11730903401661926843e-05
  +7.11730903352035011852e-05
  +7.11730903361120219482e-05
  +7.11730903375121064236e-05
  +7.11730903400125476839e-05
  +7.11730903422757655089e-05
  +7.11730903387833876809e-05
  +7.11730903385040429912e-05
</dep>
<dep _net3.Vt time>
  +9.91460526624196342594e-05
  +9.91460526624242421186e-05
  +9.91460526624175742753e-05
  +9.91460526624212741152e-05
  +9.91460526624202847807e-05
  +9.91460526624201899130e-05
  +9.91460526624263563129e-05
  +9.91460526624222498971e-05
  +9.91460526624213825354e-05
  +9.91460526624263427603e-05
  +9.91460526624122616846e-05
  +9.91460526624209081969e-05
  +9.91460526624227919982e-05
  +9.91460526624266409159e-05
  +9.91460526624293378688e-05
  +9.91460526624252992157e-05
  +9.91460526624303000983e-05
</dep>
